
T1398 000:582 SEGGER J-Link V4.36l Log File (0002ms, 0577ms total)
T1398 000:582 DLL Compiled: Dec  2 2011 18:52:36 (0003ms, 0577ms total)
T1398 000:582 Logging started @ 2013-01-27 06:24 (0003ms, 0577ms total)
T1398 000:585 JLINK_SetWarnOutHandler(...) (0000ms, 0580ms total)
T1398 000:585 JLINK_OpenEx(...)
Firmware: J-Link ARM V8 compiled Dec  6 2011 18:57:44
Hardware: V8.00
S/N: 805306163
Feature(s): RDI,FlashDL,FlashBP,JFlash,GDBFull  returns O.K. (0379ms, 0580ms total)
T1398 000:966 JLINK_SetErrorOutHandler(...) (0000ms, 0959ms total)
T1398 000:968 JLINK_ExecCommand("Device = LPC1765", ...)
                JLINK_ExecCommand("map ram 0x10000000 - 0x10007FFF", ...)  returns 0x00 (0000ms, 0000ms total)
                JLINK_AddMirrorAreaEx(Addr = 0x00000000, Size = 0x00000000) (0000ms, 0000ms total)
              Device "LPC1765" selected (256 KB flash, 32 KB RAM).  returns 0x00 (0004ms, 0959ms total)
T1398 000:978 JLINK_ExecCommand("ProjectFile = "E:\最近的项目\LPC1700\光盘\第8章 LPC1700 IAP的应用\IAP代码\Project\JLinkSettings.ini"", ...)  returns 0x00 (0002ms, 0963ms total)
T1398 000:984 JLINK_ExecCommand("DisableConnectionTimeout", ...)  returns 0x00 (0000ms, 0965ms total)
T1398 000:984 JLINK_TIF_Select(JLINKARM_TIF_SWD)  returns 0x00 (0009ms, 0965ms total)
T1398 000:993 JLINK_SetSpeed(2000) (0001ms, 0974ms total)
T1398 000:994 JLINK_GetHardwareVersion()  returns 0x13880 (0000ms, 0975ms total)
T1398 000:994 JLINK_GetDLLVersion()  returns 43612 (0000ms, 0975ms total)
T1398 000:994 JLINK_GetFirmwareString(...) (0000ms, 0975ms total)
T1398 001:009 JLINK_GetDLLVersion()  returns 43612 (0000ms, 0975ms total)
T1398 001:009 JLINK_GetCompileDateTime() (0000ms, 0975ms total)
T1398 001:014 JLINK_GetFirmwareString(...) (0000ms, 0975ms total)
T1398 001:017 JLINK_GetHardwareVersion()  returns 0x13880 (0000ms, 0975ms total)
T1398 001:034 JLINK_GetId() >0x108 TIF>Found SWD-DP with ID 0x2BA01477 >0x33 TIF> >0x33 TIF> >0x35 TIF> >0x33 TIF> >0x33 TIF> >0x35 TIF> >0x33 TIF> >0x33 TIF> >0x35 TIF> >0x33 TIF> >0x33 TIF> >0x35 TIF> >0x33 TIF> >0x33 TIF> >0x35 TIF> >0x35 TIF> >0x35 TIF> >0x35 TIF> >0x35 TIF> >0x33 TIF> >0x33 TIF> >0x35 TIF> >0x35 TIF> >0x35 TIF> >0x33 TIF> >0x33 TIF> >0x33 TIF>TPIU fitted.ETM fitted. >0x35 TIF> >0x33 TIF> >0x33 TIF> >0x35 TIF> >0x33 TIF> >0x33 TIF>  FPUnit: 6 code (BP) slots and 2 literal slots
 >0x35 TIF> >0x33 TIF> >0x33 TIF> >0x35 TIF> >0x35 TIF> >0x35 TIF> >0x33 TIF> >0x33 TIF> >0x35 TIF> >0x33 TIF> >0x33 TIF> >0x35 TIF> >0x33 TIF> >0x33 TIF>Found Cortex-M3 r2p0, Little endian. >0x33 TIF>  returns 0x2BA01477 (0125ms, 0975ms total)
T1398 001:159 JLINK_GetDebugInfo(0x100) -- Value=0xE00FF003  returns 0x00 (0002ms, 1100ms total)
T1398 001:164 JLINK_ReadMem (0xE00FFFF0, 0x0010 Bytes, ...) -- CPU is running -- CPU_ReadMem(16 bytes @ 0xE00FFFF0) -- Data:  0D 00 00 00 10 00 00 00 05 00 00 00 B1 00 00 00  returns 0x00 (0004ms, 1102ms total)
T1398 001:168 JLINK_ReadMem (0xE00FFFD0, 0x0020 Bytes, ...) -- CPU is running -- CPU_ReadMem(32 bytes @ 0xE00FFFD0) -- Data:  00 00 00 00 00 00 00 00 00 00 00 00 00 00 00 00 ...  returns 0x00 (0003ms, 1106ms total)
T1398 001:171 JLINK_ReadMem (0xE00FF000, 0x0018 Bytes, ...) -- CPU is running -- CPU_ReadMem(24 bytes @ 0xE00FF000) -- Data:  03 F0 F0 FF 03 20 F0 FF 03 30 F0 FF 03 10 F0 FF ...  returns 0x00 (0003ms, 1109ms total)
T1398 001:174 JLINK_ReadMemU32(0xE000ED00, 0x0001 Items, ...) -- CPU is running -- CPU_ReadMem(4 bytes @ 0xE000ED00) -- Data:  30 C2 2F 41  returns 0x01 (0003ms, 1112ms total)
T1398 001:177 JLINK_SetResetType(JLINKARM_RESET_TYPE_NORMAL)  returns ??? (0000ms, 1115ms total)
T1398 001:177 JLINK_Reset() >0x108 TIF>Found SWD-DP with ID 0x2BA01477 >0x33 TIF> >0x33 TIF> >0x35 TIF> >0x33 TIF> >0x35 TIF> >0x33 TIF> >0x33 TIF> >0x35 TIF> >0x33 TIF> >0x33 TIF> >0x35 TIF> >0x33 TIF> >0x33 TIF> >0x35 TIF> >0x33 TIF> >0x33 TIF> >0x35 TIF> >0x35 TIF> >0x35 TIF> >0x35 TIF> >0x35 TIF> >0x33 TIF> >0x33 TIF> >0x35 TIF> >0x33 TIF> >0x33 TIF> >0x33 TIF>TPIU fitted.ETM fitted. >0x35 TIF> >0x33 TIF> >0x33 TIF> >0x35 TIF> >0x33 TIF> >0x33 TIF>  FPUnit: 6 code (BP) slots and 2 literal slots
 >0x35 TIF> >0x33 TIF> >0x33 TIF> >0x35 TIF> >0x33 TIF> >0x33 TIF> >0x35 TIF> >0x33 TIF> >0x33 TIF> >0x35 TIF> >0x33 TIF> >0x33 TIF>Found Cortex-M3 r2p0, Little endian. -- CPU_WriteMem(4 bytes @ 0xE000EDFC) -- CPU_WriteMem(4 bytes @ 0xE000EDFC) -- CPU_WriteMem(4 bytes @ 0xE000EDFC) -- CPU_WriteMem(4 bytes @ 0xE000EDFC) -- CPU_WriteMem(4 bytes @ 0xE000EDFC) -- CPU_WriteMem(4 bytes @ 0xE0001050) -- CPU_WriteMem(4 bytes @ 0xE0001054) -- CPU_WriteMem(4 bytes @ 0xE0001058)
 -- CPU_WriteMem(4 bytes @ 0xE000EDFC) -- CPU_WriteMem(4 bytes @ 0xE0001058) -- CPU_ReadMem(4 bytes @ 0x00000004) -- CPU_ReadMem(4 bytes @ 0xE0002000) -- CPU_ReadMem(4 bytes @ 0xE0002008) -- CPU_ReadMem(4 bytes @ 0xE000200C) -- CPU_ReadMem(4 bytes @ 0xE0002010) -- CPU_ReadMem(4 bytes @ 0xE0002014) -- CPU_ReadMem(4 bytes @ 0xE0002018) -- CPU_ReadMem(4 bytes @ 0xE000201C) -- CPU_WriteMem(4 bytes @ 0xE0002000) -- CPU_WriteMem(4 bytes @ 0xE0002008) -- CPU_WriteMem(4 bytes @ 0xE000200C)
 -- CPU_WriteMem(4 bytes @ 0xE0002010) -- CPU_WriteMem(4 bytes @ 0xE0002014) -- CPU_WriteMem(4 bytes @ 0xE0002018) -- CPU_WriteMem(4 bytes @ 0xE000201C)
                JLINK_ReadMemHW(0x400FC040, 0x0004 Bytes, ...) -- CPU_ReadMem(4 bytes @ 0x400FC040) -- Data:  01 00 00 00  returns 0x00 (0003ms, 0000ms total)
               -- MA0 is in flash -- Unmirror addr 0x000000E0 -- CPU_WriteMem(4 bytes @ 0xE0002000) -- CPU_WriteMem(4 bytes @ 0xE0002008) -- CPU_WriteMem(4 bytes @ 0xE000200C) -- CPU_WriteMem(4 bytes @ 0xE0002010) -- CPU_WriteMem(4 bytes @ 0xE0002014) -- CPU_WriteMem(4 bytes @ 0xE0002018) -- CPU_WriteMem(4 bytes @ 0xE000201C) (0446ms, 1115ms total)
T1398 001:623 JLINK_Halt()  returns 0x00 (0000ms, 1561ms total)
T1398 001:623 JLINK_IsHalted()  returns TRUE (0000ms, 1561ms total)
T1398 001:623 JLINK_ReadMemU32(0xE000EDF0, 0x0001 Items, ...) -- CPU_ReadMem(4 bytes @ 0xE000EDF0) -- Data:  03 00 03 00  returns 0x01 (0003ms, 1561ms total)
T1398 001:626 JLINK_WriteU32(0xE000EDF0, 0xA05F0003) -- CPU_WriteMem(4 bytes @ 0xE000EDF0) -- Invalidate MA0 status  returns 0x00 (0002ms, 1564ms total)
T1398 001:628 JLINK_WriteU32(0xE000EDFC, 0x01000000) -- CPU_WriteMem(4 bytes @ 0xE000EDFC)  returns 0x00 (0004ms, 1566ms total)
T1398 001:647 JLINK_GetHWStatus(...)  returns 0x00 (0006ms, 1570ms total)
T1398 001:665 JLINK_GetNumBPUnits(Type = 0xFFFFFF00)  returns 0x06 (0000ms, 1576ms total)
T1398 001:665 JLINK_GetNumBPUnits(Type = 0xF0)  returns 0x2000 (0000ms, 1576ms total)
T1398 001:665 JLINK_GetNumWPUnits()  returns 0x04 (0000ms, 1576ms total)
T1398 001:677 JLINK_GetSpeed()  returns 0x7D0 (0000ms, 1576ms total)
T1398 001:687 JLINK_ReadMemU32(0xE000E004, 0x0001 Items, ...) -- CPU_ReadMem(4 bytes @ 0xE000E004) -- Data:  01 00 00 00  returns 0x01 (0002ms, 1576ms total)
T1398 001:689 JLINK_ReadMemU32(0xE000E004, 0x0001 Items, ...) -- CPU_ReadMem(4 bytes @ 0xE000E004) -- Data:  01 00 00 00  returns 0x01 (0002ms, 1578ms total)
T1398 001:691 JLINK_WriteMem(0xE0001000, 0x001C Bytes, ...) -- Data:  01 00 00 00 00 00 00 00 00 00 00 00 00 00 00 00 ... -- CPU_WriteMem(28 bytes @ 0xE0001000)  returns 0x1C (0003ms, 1580ms total)
T1398 001:694 JLINK_ReadMem (0xE0001000, 0x001C Bytes, ...) -- CPU_ReadMem(28 bytes @ 0xE0001000) -- Data:  01 00 00 40 00 00 00 00 00 00 00 00 00 00 00 00 ...  returns 0x00 (0003ms, 1583ms total)
T1398 001:697 JLINK_Halt()  returns 0x00 (0000ms, 1586ms total)
T1398 001:697 JLINK_IsHalted()  returns TRUE (0000ms, 1586ms total)
T1398 001:704 JLINK_WriteMem(0x10000000, 0x01D4 Bytes, ...) -- Data:  00 BE 0A E0 0D 78 2D 06 68 40 08 24 40 00 00 D3 ... -- CPU_WriteMem(468 bytes @ 0x10000000)  returns 0x1D4 (0009ms, 1586ms total)
T1398 001:713 JLINK_WriteReg(R0, 0x00000000)  returns 0x00 (0000ms, 1595ms total)
T1398 001:713 JLINK_WriteReg(R1, 0x00B71B00)  returns 0x00 (0000ms, 1595ms total)
T1398 001:713 JLINK_WriteReg(R2, 0x00000001)  returns 0x00 (0000ms, 1595ms total)
T1398 001:713 JLINK_WriteReg(R3, 0x00000000)  returns 0x00 (0000ms, 1595ms total)
T1398 001:713 JLINK_WriteReg(R4, 0x00000000)  returns 0x00 (0000ms, 1595ms total)
T1398 001:713 JLINK_WriteReg(R5, 0x00000000)  returns 0x00 (0001ms, 1595ms total)
T1398 001:714 JLINK_WriteReg(R6, 0x00000000)  returns 0x00 (0000ms, 1596ms total)
T1398 001:714 JLINK_WriteReg(R7, 0x00000000)  returns 0x00 (0000ms, 1596ms total)
T1398 001:714 JLINK_WriteReg(R8, 0x00000000)  returns 0x00 (0000ms, 1596ms total)
T1398 001:714 JLINK_WriteReg(R9, 0x100001CC)  returns 0x00 (0000ms, 1596ms total)
T1398 001:714 JLINK_WriteReg(R10, 0x00000000)  returns 0x00 (0000ms, 1596ms total)
T1398 001:714 JLINK_WriteReg(R11, 0x00000000)  returns 0x00 (0000ms, 1596ms total)
T1398 001:714 JLINK_WriteReg(R12, 0x00000000)  returns 0x00 (0000ms, 1596ms total)
T1398 001:714 JLINK_WriteReg(R13, 0x10000800)  returns 0x00 (0000ms, 1596ms total)
T1398 001:714 JLINK_WriteReg(R14, 0x10000001)  returns 0x00 (0000ms, 1596ms total)
T1398 001:714 JLINK_WriteReg(R15, 0x10000044)  returns 0x00 (0000ms, 1596ms total)
T1398 001:714 JLINK_WriteReg(XPSR, 0x01000000)  returns 0x00 (0000ms, 1596ms total)
T1398 001:714 JLINK_WriteReg(MSP, 0x10000800)  returns 0x00 (0000ms, 1596ms total)
T1398 001:714 JLINK_WriteReg(PSP, 0x10000800)  returns 0x00 (0000ms, 1596ms total)
T1398 001:714 JLINK_WriteReg(CFBP, 0x00000000)  returns 0x00 (0000ms, 1596ms total)
T1398 001:714 JLINK_SetBPEx(Addr = 0x10000000, Type = 0xFFFFFFF2)  returns 0x00000001 (0001ms, 1596ms total)
T1398 001:715 JLINK_Go() -- CPU_WriteMem(4 bytes @ 0xE0002000) -- CPU_WriteMem(4 bytes @ 0xE0002008) -- CPU_WriteMem(4 bytes @ 0xE000200C) -- CPU_WriteMem(4 bytes @ 0xE0002010) -- CPU_WriteMem(4 bytes @ 0xE0002014) -- CPU_WriteMem(4 bytes @ 0xE0002018) -- CPU_WriteMem(4 bytes @ 0xE000201C) (0022ms, 1597ms total)
T1398 001:737 JLINK_IsHalted()  returns TRUE (0009ms, 1619ms total)
T1398 001:746 JLINK_ReadReg(R15)  returns 0x10000000 (0000ms, 1619ms total)
T1398 001:746 JLINK_ClrBPEx(BPHandle = 0x00000001)  returns 0x00 (0000ms, 1619ms total)
T1398 001:746 JLINK_ReadReg(R0)  returns 0x00000000 (0000ms, 1619ms total)
T1398 001:747 JLINK_WriteReg(R0, 0x00000000)  returns 0x00 (0000ms, 1619ms total)
T1398 001:747 JLINK_WriteReg(R1, 0x00001000)  returns 0x00 (0000ms, 1619ms total)
T1398 001:747 JLINK_WriteReg(R2, 0x000000FF)  returns 0x00 (0000ms, 1619ms total)
T1398 001:748 JLINK_WriteReg(R3, 0x00000000)  returns 0x00 (0000ms, 1619ms total)
T1398 001:748 JLINK_WriteReg(R4, 0x00000000)  returns 0x00 (0000ms, 1619ms total)
T1398 001:748 JLINK_WriteReg(R5, 0x00000000)  returns 0x00 (0000ms, 1619ms total)
T1398 001:748 JLINK_WriteReg(R6, 0x00000000)  returns 0x00 (0000ms, 1619ms total)
T1398 001:748 JLINK_WriteReg(R7, 0x00000000)  returns 0x00 (0000ms, 1619ms total)
T1398 001:748 JLINK_WriteReg(R8, 0x00000000)  returns 0x00 (0000ms, 1619ms total)
T1398 001:748 JLINK_WriteReg(R9, 0x100001CC)  returns 0x00 (0000ms, 1619ms total)
T1398 001:748 JLINK_WriteReg(R10, 0x00000000)  returns 0x00 (0000ms, 1619ms total)
T1398 001:748 JLINK_WriteReg(R11, 0x00000000)  returns 0x00 (0000ms, 1619ms total)
T1398 001:748 JLINK_WriteReg(R12, 0x00000000)  returns 0x00 (0000ms, 1619ms total)
T1398 001:748 JLINK_WriteReg(R13, 0x10000800)  returns 0x00 (0000ms, 1619ms total)
T1398 001:748 JLINK_WriteReg(R14, 0x10000001)  returns 0x00 (0000ms, 1619ms total)
T1398 001:748 JLINK_WriteReg(R15, 0x10000020)  returns 0x00 (0000ms, 1619ms total)
T1398 001:748 JLINK_WriteReg(XPSR, 0x01000000)  returns 0x00 (0000ms, 1619ms total)
T1398 001:748 JLINK_WriteReg(MSP, 0x10000800)  returns 0x00 (0000ms, 1619ms total)
T1398 001:748 JLINK_WriteReg(PSP, 0x10000800)  returns 0x00 (0000ms, 1619ms total)
T1398 001:748 JLINK_WriteReg(CFBP, 0x00000000)  returns 0x00 (0000ms, 1619ms total)
T1398 001:749 JLINK_SetBPEx(Addr = 0x10000000, Type = 0xFFFFFFF2)  returns 0x00000002 (0000ms, 1620ms total)
T1398 001:749 JLINK_Go() -- CPU_WriteMem(4 bytes @ 0xE0002008) -- CPU_WriteMem(4 bytes @ 0xE000200C) -- CPU_WriteMem(4 bytes @ 0xE0002010) -- CPU_WriteMem(4 bytes @ 0xE0002014) -- CPU_WriteMem(4 bytes @ 0xE0002018) -- CPU_WriteMem(4 bytes @ 0xE000201C) (0017ms, 1620ms total)
T1398 001:766 JLINK_IsHalted()  returns TRUE (0008ms, 1637ms total)
T1398 001:774 JLINK_ReadReg(R15)  returns 0x10000000 (0000ms, 1637ms total)
T1398 001:774 JLINK_ClrBPEx(BPHandle = 0x00000002)  returns 0x00 (0000ms, 1637ms total)
T1398 001:774 JLINK_ReadReg(R0)  returns 0x00000001 (0000ms, 1637ms total)
T1398 001:774 JLINK_WriteReg(R0, 0x00000000)  returns 0x00 (0000ms, 1637ms total)
T1398 001:774 JLINK_WriteReg(R1, 0x00001000)  returns 0x00 (0000ms, 1637ms total)
T1398 001:774 JLINK_WriteReg(R2, 0x000000FF)  returns 0x00 (0000ms, 1637ms total)
T1398 001:774 JLINK_WriteReg(R3, 0x00000000)  returns 0x00 (0000ms, 1637ms total)
T1398 001:774 JLINK_WriteReg(R4, 0x00000000)  returns 0x00 (0000ms, 1637ms total)
T1398 001:774 JLINK_WriteReg(R5, 0x00000000)  returns 0x00 (0001ms, 1637ms total)
T1398 001:775 JLINK_WriteReg(R6, 0x00000000)  returns 0x00 (0000ms, 1638ms total)
T1398 001:775 JLINK_WriteReg(R7, 0x00000000)  returns 0x00 (0000ms, 1638ms total)
T1398 001:775 JLINK_WriteReg(R8, 0x00000000)  returns 0x00 (0000ms, 1638ms total)
T1398 001:775 JLINK_WriteReg(R9, 0x100001CC)  returns 0x00 (0000ms, 1638ms total)
T1398 001:775 JLINK_WriteReg(R10, 0x00000000)  returns 0x00 (0000ms, 1638ms total)
T1398 001:775 JLINK_WriteReg(R11, 0x00000000)  returns 0x00 (0000ms, 1638ms total)
T1398 001:775 JLINK_WriteReg(R12, 0x00000000)  returns 0x00 (0000ms, 1638ms total)
T1398 001:775 JLINK_WriteReg(R13, 0x10000800)  returns 0x00 (0000ms, 1638ms total)
T1398 001:775 JLINK_WriteReg(R14, 0x10000001)  returns 0x00 (0000ms, 1638ms total)
T1398 001:775 JLINK_WriteReg(R15, 0x100000E6)  returns 0x00 (0000ms, 1638ms total)
T1398 001:775 JLINK_WriteReg(XPSR, 0x01000000)  returns 0x00 (0000ms, 1638ms total)
T1398 001:775 JLINK_WriteReg(MSP, 0x10000800)  returns 0x00 (0000ms, 1638ms total)
T1398 001:775 JLINK_WriteReg(PSP, 0x10000800)  returns 0x00 (0001ms, 1638ms total)
T1398 001:776 JLINK_WriteReg(CFBP, 0x00000000)  returns 0x00 (0000ms, 1639ms total)
T1398 001:776 JLINK_SetBPEx(Addr = 0x10000000, Type = 0xFFFFFFF2)  returns 0x00000003 (0000ms, 1639ms total)
T1398 001:776 JLINK_Go() -- CPU_WriteMem(4 bytes @ 0xE0002008) -- CPU_WriteMem(4 bytes @ 0xE000200C) -- CPU_WriteMem(4 bytes @ 0xE0002010) -- CPU_WriteMem(4 bytes @ 0xE0002014) -- CPU_WriteMem(4 bytes @ 0xE0002018) -- CPU_WriteMem(4 bytes @ 0xE000201C) (0018ms, 1639ms total)
T1398 001:794 JLINK_IsHalted()  returns FALSE (0002ms, 1657ms total)
T1398 001:846 JLINK_IsHalted()  returns FALSE (0002ms, 1657ms total)
T1398 001:898 JLINK_IsHalted()  returns TRUE (0011ms, 1657ms total)
T1398 001:909 JLINK_ReadReg(R15)  returns 0x10000000 (0000ms, 1657ms total)
T1398 001:909 JLINK_ClrBPEx(BPHandle = 0x00000003)  returns 0x00 (0000ms, 1657ms total)
T1398 001:909 JLINK_ReadReg(R0)  returns 0x00000000 (0000ms, 1657ms total)
T1398 001:911 JLINK_WriteReg(R0, 0x00001000)  returns 0x00 (0000ms, 1657ms total)
T1398 001:911 JLINK_WriteReg(R1, 0x00001000)  returns 0x00 (0000ms, 1657ms total)
T1398 001:911 JLINK_WriteReg(R2, 0x000000FF)  returns 0x00 (0000ms, 1657ms total)
T1398 001:911 JLINK_WriteReg(R3, 0x00000000)  returns 0x00 (0000ms, 1657ms total)
T1398 001:912 JLINK_WriteReg(R4, 0x00000000)  returns 0x00 (0000ms, 1658ms total)
T1398 001:912 JLINK_WriteReg(R5, 0x00000000)  returns 0x00 (0000ms, 1658ms total)
T1398 001:912 JLINK_WriteReg(R6, 0x00000000)  returns 0x00 (0000ms, 1658ms total)
T1398 001:912 JLINK_WriteReg(R7, 0x00000000)  returns 0x00 (0000ms, 1658ms total)
T1398 001:912 JLINK_WriteReg(R8, 0x00000000)  returns 0x00 (0000ms, 1658ms total)
T1398 001:912 JLINK_WriteReg(R9, 0x100001CC)  returns 0x00 (0000ms, 1658ms total)
T1398 001:912 JLINK_WriteReg(R10, 0x00000000)  returns 0x00 (0000ms, 1658ms total)
T1398 001:912 JLINK_WriteReg(R11, 0x00000000)  returns 0x00 (0000ms, 1658ms total)
T1398 001:912 JLINK_WriteReg(R12, 0x00000000)  returns 0x00 (0001ms, 1658ms total)
T1398 001:913 JLINK_WriteReg(R13, 0x10000800)  returns 0x00 (0000ms, 1659ms total)
T1398 001:913 JLINK_WriteReg(R14, 0x10000001)  returns 0x00 (0000ms, 1659ms total)
T1398 001:913 JLINK_WriteReg(R15, 0x10000020)  returns 0x00 (0000ms, 1659ms total)
T1398 001:913 JLINK_WriteReg(XPSR, 0x01000000)  returns 0x00 (0000ms, 1659ms total)
T1398 001:913 JLINK_WriteReg(MSP, 0x10000800)  returns 0x00 (0001ms, 1659ms total)
T1398 001:914 JLINK_WriteReg(PSP, 0x10000800)  returns 0x00 (0000ms, 1660ms total)
T1398 001:914 JLINK_WriteReg(CFBP, 0x00000000)  returns 0x00 (0000ms, 1660ms total)
T1398 001:914 JLINK_SetBPEx(Addr = 0x10000000, Type = 0xFFFFFFF2)  returns 0x00000004 (0000ms, 1660ms total)
T1398 001:914 JLINK_Go() -- CPU_WriteMem(4 bytes @ 0xE0002008) -- CPU_WriteMem(4 bytes @ 0xE000200C) -- CPU_WriteMem(4 bytes @ 0xE0002010) -- CPU_WriteMem(4 bytes @ 0xE0002014) -- CPU_WriteMem(4 bytes @ 0xE0002018) -- CPU_WriteMem(4 bytes @ 0xE000201C) (0025ms, 1660ms total)
T1398 001:939 JLINK_IsHalted()  returns TRUE (0011ms, 1685ms total)
T1398 001:950 JLINK_ReadReg(R15)  returns 0x10000000 (0000ms, 1685ms total)
T1398 001:950 JLINK_ClrBPEx(BPHandle = 0x00000004)  returns 0x00 (0000ms, 1685ms total)
T1398 001:950 JLINK_ReadReg(R0)  returns 0x00000001 (0001ms, 1685ms total)
T1398 001:951 JLINK_WriteReg(R0, 0x00001000)  returns 0x00 (0000ms, 1686ms total)
T1398 001:951 JLINK_WriteReg(R1, 0x00001000)  returns 0x00 (0000ms, 1686ms total)
T1398 001:951 JLINK_WriteReg(R2, 0x000000FF)  returns 0x00 (0000ms, 1686ms total)
T1398 001:951 JLINK_WriteReg(R3, 0x00000000)  returns 0x00 (0000ms, 1686ms total)
T1398 001:951 JLINK_WriteReg(R4, 0x00000000)  returns 0x00 (0000ms, 1686ms total)
T1398 001:951 JLINK_WriteReg(R5, 0x00000000)  returns 0x00 (0000ms, 1686ms total)
T1398 001:952 JLINK_WriteReg(R6, 0x00000000)  returns 0x00 (0000ms, 1687ms total)
T1398 001:952 JLINK_WriteReg(R7, 0x00000000)  returns 0x00 (0000ms, 1687ms total)
T1398 001:952 JLINK_WriteReg(R8, 0x00000000)  returns 0x00 (0000ms, 1687ms total)
T1398 001:952 JLINK_WriteReg(R9, 0x100001CC)  returns 0x00 (0000ms, 1687ms total)
T1398 001:952 JLINK_WriteReg(R10, 0x00000000)  returns 0x00 (0000ms, 1687ms total)
T1398 001:952 JLINK_WriteReg(R11, 0x00000000)  returns 0x00 (0000ms, 1687ms total)
T1398 001:952 JLINK_WriteReg(R12, 0x00000000)  returns 0x00 (0000ms, 1687ms total)
T1398 001:952 JLINK_WriteReg(R13, 0x10000800)  returns 0x00 (0000ms, 1687ms total)
T1398 001:952 JLINK_WriteReg(R14, 0x10000001)  returns 0x00 (0001ms, 1687ms total)
T1398 001:953 JLINK_WriteReg(R15, 0x100000E6)  returns 0x00 (0000ms, 1688ms total)
T1398 001:953 JLINK_WriteReg(XPSR, 0x01000000)  returns 0x00 (0000ms, 1688ms total)
T1398 001:953 JLINK_WriteReg(MSP, 0x10000800)  returns 0x00 (0000ms, 1688ms total)
T1398 001:953 JLINK_WriteReg(PSP, 0x10000800)  returns 0x00 (0000ms, 1688ms total)
T1398 001:953 JLINK_WriteReg(CFBP, 0x00000000)  returns 0x00 (0000ms, 1688ms total)
T1398 001:953 JLINK_SetBPEx(Addr = 0x10000000, Type = 0xFFFFFFF2)  returns 0x00000005 (0000ms, 1688ms total)
T1398 001:953 JLINK_Go() -- CPU_WriteMem(4 bytes @ 0xE0002008) -- CPU_WriteMem(4 bytes @ 0xE000200C) -- CPU_WriteMem(4 bytes @ 0xE0002010) -- CPU_WriteMem(4 bytes @ 0xE0002014) -- CPU_WriteMem(4 bytes @ 0xE0002018) -- CPU_WriteMem(4 bytes @ 0xE000201C) (0026ms, 1688ms total)
T1398 001:979 JLINK_IsHalted()  returns FALSE (0002ms, 1714ms total)
T1398 002:031 JLINK_IsHalted()  returns FALSE (0002ms, 1714ms total)
T1398 002:083 JLINK_IsHalted()  returns TRUE (0011ms, 1714ms total)
T1398 002:094 JLINK_ReadReg(R15)  returns 0x10000000 (0000ms, 1714ms total)
T1398 002:094 JLINK_ClrBPEx(BPHandle = 0x00000005)  returns 0x00 (0000ms, 1714ms total)
T1398 002:094 JLINK_ReadReg(R0)  returns 0x00000000 (0000ms, 1714ms total)
T1398 002:097 JLINK_WriteReg(R0, 0x00002000)  returns 0x00 (0000ms, 1714ms total)
T1398 002:097 JLINK_WriteReg(R1, 0x00001000)  returns 0x00 (0000ms, 1714ms total)
T1398 002:097 JLINK_WriteReg(R2, 0x000000FF)  returns 0x00 (0000ms, 1714ms total)
T1398 002:097 JLINK_WriteReg(R3, 0x00000000)  returns 0x00 (0000ms, 1714ms total)
T1398 002:097 JLINK_WriteReg(R4, 0x00000000)  returns 0x00 (0000ms, 1714ms total)
T1398 002:097 JLINK_WriteReg(R5, 0x00000000)  returns 0x00 (0000ms, 1714ms total)
T1398 002:097 JLINK_WriteReg(R6, 0x00000000)  returns 0x00 (0001ms, 1714ms total)
T1398 002:098 JLINK_WriteReg(R7, 0x00000000)  returns 0x00 (0000ms, 1715ms total)
T1398 002:098 JLINK_WriteReg(R8, 0x00000000)  returns 0x00 (0000ms, 1715ms total)
T1398 002:098 JLINK_WriteReg(R9, 0x100001CC)  returns 0x00 (0000ms, 1715ms total)
T1398 002:098 JLINK_WriteReg(R10, 0x00000000)  returns 0x00 (0000ms, 1715ms total)
T1398 002:098 JLINK_WriteReg(R11, 0x00000000)  returns 0x00 (0000ms, 1715ms total)
T1398 002:098 JLINK_WriteReg(R12, 0x00000000)  returns 0x00 (0001ms, 1715ms total)
T1398 002:099 JLINK_WriteReg(R13, 0x10000800)  returns 0x00 (0000ms, 1716ms total)
T1398 002:099 JLINK_WriteReg(R14, 0x10000001)  returns 0x00 (0000ms, 1716ms total)
T1398 002:099 JLINK_WriteReg(R15, 0x10000020)  returns 0x00 (0000ms, 1716ms total)
T1398 002:099 JLINK_WriteReg(XPSR, 0x01000000)  returns 0x00 (0000ms, 1716ms total)
T1398 002:099 JLINK_WriteReg(MSP, 0x10000800)  returns 0x00 (0001ms, 1716ms total)
T1398 002:100 JLINK_WriteReg(PSP, 0x10000800)  returns 0x00 (0000ms, 1717ms total)
T1398 002:100 JLINK_WriteReg(CFBP, 0x00000000)  returns 0x00 (0000ms, 1717ms total)
T1398 002:100 JLINK_SetBPEx(Addr = 0x10000000, Type = 0xFFFFFFF2)  returns 0x00000006 (0000ms, 1717ms total)
T1398 002:100 JLINK_Go() -- CPU_WriteMem(4 bytes @ 0xE0002008) -- CPU_WriteMem(4 bytes @ 0xE000200C) -- CPU_WriteMem(4 bytes @ 0xE0002010) -- CPU_WriteMem(4 bytes @ 0xE0002014) -- CPU_WriteMem(4 bytes @ 0xE0002018) -- CPU_WriteMem(4 bytes @ 0xE000201C) (0025ms, 1717ms total)
T1398 002:125 JLINK_IsHalted()  returns TRUE (0008ms, 1742ms total)
T1398 002:133 JLINK_ReadReg(R15)  returns 0x10000000 (0000ms, 1742ms total)
T1398 002:133 JLINK_ClrBPEx(BPHandle = 0x00000006)  returns 0x00 (0000ms, 1742ms total)
T1398 002:133 JLINK_ReadReg(R0)  returns 0x00000001 (0000ms, 1742ms total)
T1398 002:133 JLINK_WriteReg(R0, 0x00002000)  returns 0x00 (0000ms, 1742ms total)
T1398 002:133 JLINK_WriteReg(R1, 0x00001000)  returns 0x00 (0000ms, 1742ms total)
T1398 002:133 JLINK_WriteReg(R2, 0x000000FF)  returns 0x00 (0000ms, 1742ms total)
T1398 002:133 JLINK_WriteReg(R3, 0x00000000)  returns 0x00 (0000ms, 1742ms total)
T1398 002:133 JLINK_WriteReg(R4, 0x00000000)  returns 0x00 (0000ms, 1742ms total)
T1398 002:133 JLINK_WriteReg(R5, 0x00000000)  returns 0x00 (0001ms, 1742ms total)
T1398 002:134 JLINK_WriteReg(R6, 0x00000000)  returns 0x00 (0000ms, 1743ms total)
T1398 002:134 JLINK_WriteReg(R7, 0x00000000)  returns 0x00 (0000ms, 1743ms total)
T1398 002:134 JLINK_WriteReg(R8, 0x00000000)  returns 0x00 (0000ms, 1743ms total)
T1398 002:134 JLINK_WriteReg(R9, 0x100001CC)  returns 0x00 (0000ms, 1743ms total)
T1398 002:134 JLINK_WriteReg(R10, 0x00000000)  returns 0x00 (0000ms, 1743ms total)
T1398 002:134 JLINK_WriteReg(R11, 0x00000000)  returns 0x00 (0000ms, 1743ms total)
T1398 002:134 JLINK_WriteReg(R12, 0x00000000)  returns 0x00 (0000ms, 1743ms total)
T1398 002:134 JLINK_WriteReg(R13, 0x10000800)  returns 0x00 (0000ms, 1743ms total)
T1398 002:134 JLINK_WriteReg(R14, 0x10000001)  returns 0x00 (0000ms, 1743ms total)
T1398 002:134 JLINK_WriteReg(R15, 0x100000E6)  returns 0x00 (0000ms, 1743ms total)
T1398 002:134 JLINK_WriteReg(XPSR, 0x01000000)  returns 0x00 (0000ms, 1743ms total)
T1398 002:134 JLINK_WriteReg(MSP, 0x10000800)  returns 0x00 (0000ms, 1743ms total)
T1398 002:134 JLINK_WriteReg(PSP, 0x10000800)  returns 0x00 (0000ms, 1743ms total)
T1398 002:134 JLINK_WriteReg(CFBP, 0x00000000)  returns 0x00 (0000ms, 1743ms total)
T1398 002:134 JLINK_SetBPEx(Addr = 0x10000000, Type = 0xFFFFFFF2)  returns 0x00000007 (0000ms, 1743ms total)
T1398 002:134 JLINK_Go() -- CPU_WriteMem(4 bytes @ 0xE0002008) -- CPU_WriteMem(4 bytes @ 0xE000200C) -- CPU_WriteMem(4 bytes @ 0xE0002010) -- CPU_WriteMem(4 bytes @ 0xE0002014) -- CPU_WriteMem(4 bytes @ 0xE0002018) -- CPU_WriteMem(4 bytes @ 0xE000201C) (0020ms, 1743ms total)
T1398 002:154 JLINK_IsHalted()  returns FALSE (0002ms, 1763ms total)
T1398 002:206 JLINK_IsHalted()  returns FALSE (0004ms, 1763ms total)
T1398 002:260 JLINK_IsHalted()  returns TRUE (0011ms, 1763ms total)
T1398 002:271 JLINK_ReadReg(R15)  returns 0x10000000 (0000ms, 1763ms total)
T1398 002:271 JLINK_ClrBPEx(BPHandle = 0x00000007)  returns 0x00 (0000ms, 1763ms total)
T1398 002:271 JLINK_ReadReg(R0)  returns 0x00000000 (0000ms, 1763ms total)
T1398 002:274 JLINK_WriteReg(R0, 0x00003000)  returns 0x00 (0000ms, 1763ms total)
T1398 002:274 JLINK_WriteReg(R1, 0x00001000)  returns 0x00 (0000ms, 1763ms total)
T1398 002:274 JLINK_WriteReg(R2, 0x000000FF)  returns 0x00 (0000ms, 1763ms total)
T1398 002:274 JLINK_WriteReg(R3, 0x00000000)  returns 0x00 (0000ms, 1763ms total)
T1398 002:274 JLINK_WriteReg(R4, 0x00000000)  returns 0x00 (0000ms, 1763ms total)
T1398 002:274 JLINK_WriteReg(R5, 0x00000000)  returns 0x00 (0000ms, 1763ms total)
T1398 002:274 JLINK_WriteReg(R6, 0x00000000)  returns 0x00 (0001ms, 1763ms total)
T1398 002:275 JLINK_WriteReg(R7, 0x00000000)  returns 0x00 (0000ms, 1764ms total)
T1398 002:275 JLINK_WriteReg(R8, 0x00000000)  returns 0x00 (0000ms, 1764ms total)
T1398 002:275 JLINK_WriteReg(R9, 0x100001CC)  returns 0x00 (0000ms, 1764ms total)
T1398 002:275 JLINK_WriteReg(R10, 0x00000000)  returns 0x00 (0000ms, 1764ms total)
T1398 002:275 JLINK_WriteReg(R11, 0x00000000)  returns 0x00 (0000ms, 1764ms total)
T1398 002:275 JLINK_WriteReg(R12, 0x00000000)  returns 0x00 (0000ms, 1764ms total)
T1398 002:276 JLINK_WriteReg(R13, 0x10000800)  returns 0x00 (0000ms, 1765ms total)
T1398 002:276 JLINK_WriteReg(R14, 0x10000001)  returns 0x00 (0000ms, 1765ms total)
T1398 002:276 JLINK_WriteReg(R15, 0x10000020)  returns 0x00 (0000ms, 1765ms total)
T1398 002:276 JLINK_WriteReg(XPSR, 0x01000000)  returns 0x00 (0000ms, 1765ms total)
T1398 002:276 JLINK_WriteReg(MSP, 0x10000800)  returns 0x00 (0000ms, 1765ms total)
T1398 002:276 JLINK_WriteReg(PSP, 0x10000800)  returns 0x00 (0000ms, 1765ms total)
T1398 002:276 JLINK_WriteReg(CFBP, 0x00000000)  returns 0x00 (0000ms, 1765ms total)
T1398 002:276 JLINK_SetBPEx(Addr = 0x10000000, Type = 0xFFFFFFF2)  returns 0x00000008 (0000ms, 1765ms total)
T1398 002:276 JLINK_Go() -- CPU_WriteMem(4 bytes @ 0xE0002008) -- CPU_WriteMem(4 bytes @ 0xE000200C) -- CPU_WriteMem(4 bytes @ 0xE0002010) -- CPU_WriteMem(4 bytes @ 0xE0002014) -- CPU_WriteMem(4 bytes @ 0xE0002018) -- CPU_WriteMem(4 bytes @ 0xE000201C) (0027ms, 1765ms total)
T1398 002:303 JLINK_IsHalted()  returns TRUE (0009ms, 1792ms total)
T1398 002:312 JLINK_ReadReg(R15)  returns 0x10000000 (0000ms, 1792ms total)
T1398 002:312 JLINK_ClrBPEx(BPHandle = 0x00000008)  returns 0x00 (0000ms, 1792ms total)
T1398 002:312 JLINK_ReadReg(R0)  returns 0x00000001 (0000ms, 1792ms total)
T1398 002:312 JLINK_WriteReg(R0, 0x00003000)  returns 0x00 (0000ms, 1792ms total)
T1398 002:312 JLINK_WriteReg(R1, 0x00001000)  returns 0x00 (0000ms, 1792ms total)
T1398 002:312 JLINK_WriteReg(R2, 0x000000FF)  returns 0x00 (0000ms, 1792ms total)
T1398 002:312 JLINK_WriteReg(R3, 0x00000000)  returns 0x00 (0000ms, 1792ms total)
T1398 002:312 JLINK_WriteReg(R4, 0x00000000)  returns 0x00 (0000ms, 1792ms total)
T1398 002:312 JLINK_WriteReg(R5, 0x00000000)  returns 0x00 (0000ms, 1792ms total)
T1398 002:312 JLINK_WriteReg(R6, 0x00000000)  returns 0x00 (0001ms, 1792ms total)
T1398 002:313 JLINK_WriteReg(R7, 0x00000000)  returns 0x00 (0000ms, 1793ms total)
T1398 002:313 JLINK_WriteReg(R8, 0x00000000)  returns 0x00 (0000ms, 1793ms total)
T1398 002:313 JLINK_WriteReg(R9, 0x100001CC)  returns 0x00 (0000ms, 1793ms total)
T1398 002:313 JLINK_WriteReg(R10, 0x00000000)  returns 0x00 (0000ms, 1793ms total)
T1398 002:313 JLINK_WriteReg(R11, 0x00000000)  returns 0x00 (0000ms, 1793ms total)
T1398 002:313 JLINK_WriteReg(R12, 0x00000000)  returns 0x00 (0000ms, 1793ms total)
T1398 002:313 JLINK_WriteReg(R13, 0x10000800)  returns 0x00 (0000ms, 1793ms total)
T1398 002:313 JLINK_WriteReg(R14, 0x10000001)  returns 0x00 (0000ms, 1793ms total)
T1398 002:313 JLINK_WriteReg(R15, 0x100000E6)  returns 0x00 (0000ms, 1793ms total)
T1398 002:313 JLINK_WriteReg(XPSR, 0x01000000)  returns 0x00 (0000ms, 1793ms total)
T1398 002:313 JLINK_WriteReg(MSP, 0x10000800)  returns 0x00 (0000ms, 1793ms total)
T1398 002:313 JLINK_WriteReg(PSP, 0x10000800)  returns 0x00 (0000ms, 1793ms total)
T1398 002:313 JLINK_WriteReg(CFBP, 0x00000000)  returns 0x00 (0000ms, 1793ms total)
T1398 002:313 JLINK_SetBPEx(Addr = 0x10000000, Type = 0xFFFFFFF2)  returns 0x00000009 (0000ms, 1793ms total)
T1398 002:313 JLINK_Go() -- CPU_WriteMem(4 bytes @ 0xE0002008) -- CPU_WriteMem(4 bytes @ 0xE000200C) -- CPU_WriteMem(4 bytes @ 0xE0002010) -- CPU_WriteMem(4 bytes @ 0xE0002014) -- CPU_WriteMem(4 bytes @ 0xE0002018) -- CPU_WriteMem(4 bytes @ 0xE000201C) (0017ms, 1793ms total)
T1398 002:330 JLINK_IsHalted()  returns FALSE (0002ms, 1810ms total)
T1398 002:382 JLINK_IsHalted()  returns FALSE (0002ms, 1810ms total)
T1398 002:434 JLINK_IsHalted()  returns TRUE (0011ms, 1810ms total)
T1398 002:445 JLINK_ReadReg(R15)  returns 0x10000000 (0000ms, 1810ms total)
T1398 002:445 JLINK_ClrBPEx(BPHandle = 0x00000009)  returns 0x00 (0000ms, 1810ms total)
T1398 002:445 JLINK_ReadReg(R0)  returns 0x00000000 (0000ms, 1810ms total)
T1398 002:447 JLINK_WriteReg(R0, 0x00004000)  returns 0x00 (0000ms, 1810ms total)
T1398 002:447 JLINK_WriteReg(R1, 0x00001000)  returns 0x00 (0000ms, 1810ms total)
T1398 002:447 JLINK_WriteReg(R2, 0x000000FF)  returns 0x00 (0000ms, 1810ms total)
T1398 002:447 JLINK_WriteReg(R3, 0x00000000)  returns 0x00 (0000ms, 1810ms total)
T1398 002:447 JLINK_WriteReg(R4, 0x00000000)  returns 0x00 (0000ms, 1810ms total)
T1398 002:448 JLINK_WriteReg(R5, 0x00000000)  returns 0x00 (0000ms, 1811ms total)
T1398 002:448 JLINK_WriteReg(R6, 0x00000000)  returns 0x00 (0000ms, 1811ms total)
T1398 002:448 JLINK_WriteReg(R7, 0x00000000)  returns 0x00 (0000ms, 1811ms total)
T1398 002:448 JLINK_WriteReg(R8, 0x00000000)  returns 0x00 (0000ms, 1811ms total)
T1398 002:448 JLINK_WriteReg(R9, 0x100001CC)  returns 0x00 (0000ms, 1811ms total)
T1398 002:448 JLINK_WriteReg(R10, 0x00000000)  returns 0x00 (0000ms, 1811ms total)
T1398 002:448 JLINK_WriteReg(R11, 0x00000000)  returns 0x00 (0000ms, 1811ms total)
T1398 002:448 JLINK_WriteReg(R12, 0x00000000)  returns 0x00 (0000ms, 1811ms total)
T1398 002:448 JLINK_WriteReg(R13, 0x10000800)  returns 0x00 (0001ms, 1811ms total)
T1398 002:449 JLINK_WriteReg(R14, 0x10000001)  returns 0x00 (0000ms, 1812ms total)
T1398 002:449 JLINK_WriteReg(R15, 0x10000020)  returns 0x00 (0000ms, 1812ms total)
T1398 002:449 JLINK_WriteReg(XPSR, 0x01000000)  returns 0x00 (0000ms, 1812ms total)
T1398 002:449 JLINK_WriteReg(MSP, 0x10000800)  returns 0x00 (0000ms, 1812ms total)
T1398 002:449 JLINK_WriteReg(PSP, 0x10000800)  returns 0x00 (0000ms, 1812ms total)
T1398 002:449 JLINK_WriteReg(CFBP, 0x00000000)  returns 0x00 (0000ms, 1812ms total)
T1398 002:449 JLINK_SetBPEx(Addr = 0x10000000, Type = 0xFFFFFFF2)  returns 0x0000000A (0000ms, 1812ms total)
T1398 002:449 JLINK_Go() -- CPU_WriteMem(4 bytes @ 0xE0002008) -- CPU_WriteMem(4 bytes @ 0xE000200C) -- CPU_WriteMem(4 bytes @ 0xE0002010) -- CPU_WriteMem(4 bytes @ 0xE0002014) -- CPU_WriteMem(4 bytes @ 0xE0002018) -- CPU_WriteMem(4 bytes @ 0xE000201C) (0033ms, 1812ms total)
T1398 002:482 JLINK_IsHalted()  returns TRUE (0009ms, 1845ms total)
T1398 002:491 JLINK_ReadReg(R15)  returns 0x10000000 (0000ms, 1845ms total)
T1398 002:491 JLINK_ClrBPEx(BPHandle = 0x0000000A)  returns 0x00 (0000ms, 1845ms total)
T1398 002:491 JLINK_ReadReg(R0)  returns 0x00000001 (0000ms, 1845ms total)
T1398 002:491 JLINK_WriteReg(R0, 0x00004000)  returns 0x00 (0000ms, 1845ms total)
T1398 002:491 JLINK_WriteReg(R1, 0x00001000)  returns 0x00 (0000ms, 1845ms total)
T1398 002:491 JLINK_WriteReg(R2, 0x000000FF)  returns 0x00 (0000ms, 1845ms total)
T1398 002:491 JLINK_WriteReg(R3, 0x00000000)  returns 0x00 (0000ms, 1845ms total)
T1398 002:491 JLINK_WriteReg(R4, 0x00000000)  returns 0x00 (0001ms, 1845ms total)
T1398 002:492 JLINK_WriteReg(R5, 0x00000000)  returns 0x00 (0000ms, 1846ms total)
T1398 002:492 JLINK_WriteReg(R6, 0x00000000)  returns 0x00 (0000ms, 1846ms total)
T1398 002:492 JLINK_WriteReg(R7, 0x00000000)  returns 0x00 (0000ms, 1846ms total)
T1398 002:492 JLINK_WriteReg(R8, 0x00000000)  returns 0x00 (0000ms, 1846ms total)
T1398 002:492 JLINK_WriteReg(R9, 0x100001CC)  returns 0x00 (0000ms, 1846ms total)
T1398 002:492 JLINK_WriteReg(R10, 0x00000000)  returns 0x00 (0000ms, 1846ms total)
T1398 002:492 JLINK_WriteReg(R11, 0x00000000)  returns 0x00 (0000ms, 1846ms total)
T1398 002:492 JLINK_WriteReg(R12, 0x00000000)  returns 0x00 (0000ms, 1846ms total)
T1398 002:492 JLINK_WriteReg(R13, 0x10000800)  returns 0x00 (0000ms, 1846ms total)
T1398 002:492 JLINK_WriteReg(R14, 0x10000001)  returns 0x00 (0000ms, 1846ms total)
T1398 002:492 JLINK_WriteReg(R15, 0x100000E6)  returns 0x00 (0000ms, 1846ms total)
T1398 002:492 JLINK_WriteReg(XPSR, 0x01000000)  returns 0x00 (0000ms, 1846ms total)
T1398 002:492 JLINK_WriteReg(MSP, 0x10000800)  returns 0x00 (0000ms, 1846ms total)
T1398 002:492 JLINK_WriteReg(PSP, 0x10000800)  returns 0x00 (0000ms, 1846ms total)
T1398 002:492 JLINK_WriteReg(CFBP, 0x00000000)  returns 0x00 (0001ms, 1846ms total)
T1398 002:493 JLINK_SetBPEx(Addr = 0x10000000, Type = 0xFFFFFFF2)  returns 0x0000000B (0000ms, 1847ms total)
T1398 002:493 JLINK_Go() -- CPU_WriteMem(4 bytes @ 0xE0002008) -- CPU_WriteMem(4 bytes @ 0xE000200C) -- CPU_WriteMem(4 bytes @ 0xE0002010) -- CPU_WriteMem(4 bytes @ 0xE0002014) -- CPU_WriteMem(4 bytes @ 0xE0002018) -- CPU_WriteMem(4 bytes @ 0xE000201C) (0017ms, 1847ms total)
T1398 002:510 JLINK_IsHalted()  returns FALSE (0002ms, 1864ms total)
T1398 002:562 JLINK_IsHalted()  returns FALSE (0002ms, 1864ms total)
T1398 002:614 JLINK_IsHalted()  returns TRUE (0026ms, 1864ms total)
T1398 002:640 JLINK_ReadReg(R15)  returns 0x10000000 (0000ms, 1864ms total)
T1398 002:640 JLINK_ClrBPEx(BPHandle = 0x0000000B)  returns 0x00 (0000ms, 1864ms total)
T1398 002:640 JLINK_ReadReg(R0)  returns 0x00000000 (0000ms, 1864ms total)
T1398 002:642 JLINK_WriteReg(R0, 0x00005000)  returns 0x00 (0000ms, 1864ms total)
T1398 002:642 JLINK_WriteReg(R1, 0x00001000)  returns 0x00 (0000ms, 1864ms total)
T1398 002:642 JLINK_WriteReg(R2, 0x000000FF)  returns 0x00 (0000ms, 1864ms total)
T1398 002:643 JLINK_WriteReg(R3, 0x00000000)  returns 0x00 (0000ms, 1865ms total)
T1398 002:643 JLINK_WriteReg(R4, 0x00000000)  returns 0x00 (0000ms, 1865ms total)
T1398 002:643 JLINK_WriteReg(R5, 0x00000000)  returns 0x00 (0000ms, 1865ms total)
T1398 002:643 JLINK_WriteReg(R6, 0x00000000)  returns 0x00 (0000ms, 1865ms total)
T1398 002:643 JLINK_WriteReg(R7, 0x00000000)  returns 0x00 (0000ms, 1865ms total)
T1398 002:643 JLINK_WriteReg(R8, 0x00000000)  returns 0x00 (0000ms, 1865ms total)
T1398 002:643 JLINK_WriteReg(R9, 0x100001CC)  returns 0x00 (0000ms, 1865ms total)
T1398 002:643 JLINK_WriteReg(R10, 0x00000000)  returns 0x00 (0000ms, 1865ms total)
T1398 002:643 JLINK_WriteReg(R11, 0x00000000)  returns 0x00 (0001ms, 1865ms total)
T1398 002:644 JLINK_WriteReg(R12, 0x00000000)  returns 0x00 (0000ms, 1866ms total)
T1398 002:644 JLINK_WriteReg(R13, 0x10000800)  returns 0x00 (0000ms, 1866ms total)
T1398 002:644 JLINK_WriteReg(R14, 0x10000001)  returns 0x00 (0000ms, 1866ms total)
T1398 002:644 JLINK_WriteReg(R15, 0x10000020)  returns 0x00 (0000ms, 1866ms total)
T1398 002:644 JLINK_WriteReg(XPSR, 0x01000000)  returns 0x00 (0000ms, 1866ms total)
T1398 002:644 JLINK_WriteReg(MSP, 0x10000800)  returns 0x00 (0000ms, 1866ms total)
T1398 002:644 JLINK_WriteReg(PSP, 0x10000800)  returns 0x00 (0000ms, 1866ms total)
T1398 002:644 JLINK_WriteReg(CFBP, 0x00000000)  returns 0x00 (0001ms, 1866ms total)
T1398 002:645 JLINK_SetBPEx(Addr = 0x10000000, Type = 0xFFFFFFF2)  returns 0x0000000C (0000ms, 1867ms total)
T1398 002:645 JLINK_Go() -- CPU_WriteMem(4 bytes @ 0xE0002008) -- CPU_WriteMem(4 bytes @ 0xE000200C) -- CPU_WriteMem(4 bytes @ 0xE0002010) -- CPU_WriteMem(4 bytes @ 0xE0002014) -- CPU_WriteMem(4 bytes @ 0xE0002018) -- CPU_WriteMem(4 bytes @ 0xE000201C) (0026ms, 1867ms total)
T1398 002:671 JLINK_IsHalted()  returns TRUE (0008ms, 1893ms total)
T1398 002:679 JLINK_ReadReg(R15)  returns 0x10000000 (0000ms, 1893ms total)
T1398 002:679 JLINK_ClrBPEx(BPHandle = 0x0000000C)  returns 0x00 (0000ms, 1893ms total)
T1398 002:679 JLINK_ReadReg(R0)  returns 0x00000001 (0000ms, 1893ms total)
T1398 002:679 JLINK_WriteReg(R0, 0x00005000)  returns 0x00 (0000ms, 1893ms total)
T1398 002:679 JLINK_WriteReg(R1, 0x00001000)  returns 0x00 (0000ms, 1893ms total)
T1398 002:679 JLINK_WriteReg(R2, 0x000000FF)  returns 0x00 (0000ms, 1893ms total)
T1398 002:679 JLINK_WriteReg(R3, 0x00000000)  returns 0x00 (0000ms, 1893ms total)
T1398 002:679 JLINK_WriteReg(R4, 0x00000000)  returns 0x00 (0000ms, 1893ms total)
T1398 002:679 JLINK_WriteReg(R5, 0x00000000)  returns 0x00 (0000ms, 1893ms total)
T1398 002:679 JLINK_WriteReg(R6, 0x00000000)  returns 0x00 (0001ms, 1893ms total)
T1398 002:680 JLINK_WriteReg(R7, 0x00000000)  returns 0x00 (0000ms, 1894ms total)
T1398 002:680 JLINK_WriteReg(R8, 0x00000000)  returns 0x00 (0000ms, 1894ms total)
T1398 002:680 JLINK_WriteReg(R9, 0x100001CC)  returns 0x00 (0000ms, 1894ms total)
T1398 002:680 JLINK_WriteReg(R10, 0x00000000)  returns 0x00 (0000ms, 1894ms total)
T1398 002:680 JLINK_WriteReg(R11, 0x00000000)  returns 0x00 (0000ms, 1894ms total)
T1398 002:680 JLINK_WriteReg(R12, 0x00000000)  returns 0x00 (0000ms, 1894ms total)
T1398 002:680 JLINK_WriteReg(R13, 0x10000800)  returns 0x00 (0000ms, 1894ms total)
T1398 002:680 JLINK_WriteReg(R14, 0x10000001)  returns 0x00 (0000ms, 1894ms total)
T1398 002:680 JLINK_WriteReg(R15, 0x100000E6)  returns 0x00 (0000ms, 1894ms total)
T1398 002:680 JLINK_WriteReg(XPSR, 0x01000000)  returns 0x00 (0000ms, 1894ms total)
T1398 002:680 JLINK_WriteReg(MSP, 0x10000800)  returns 0x00 (0000ms, 1894ms total)
T1398 002:680 JLINK_WriteReg(PSP, 0x10000800)  returns 0x00 (0000ms, 1894ms total)
T1398 002:680 JLINK_WriteReg(CFBP, 0x00000000)  returns 0x00 (0000ms, 1894ms total)
T1398 002:680 JLINK_SetBPEx(Addr = 0x10000000, Type = 0xFFFFFFF2)  returns 0x0000000D (0000ms, 1894ms total)
T1398 002:680 JLINK_Go() -- CPU_WriteMem(4 bytes @ 0xE0002008) -- CPU_WriteMem(4 bytes @ 0xE000200C) -- CPU_WriteMem(4 bytes @ 0xE0002010) -- CPU_WriteMem(4 bytes @ 0xE0002014) -- CPU_WriteMem(4 bytes @ 0xE0002018) -- CPU_WriteMem(4 bytes @ 0xE000201C) (0018ms, 1894ms total)
T1398 002:698 JLINK_IsHalted()  returns FALSE (0002ms, 1912ms total)
T1398 002:750 JLINK_IsHalted()  returns FALSE (0002ms, 1912ms total)
T1398 002:802 JLINK_IsHalted()  returns TRUE (0011ms, 1912ms total)
T1398 002:813 JLINK_ReadReg(R15)  returns 0x10000000 (0000ms, 1912ms total)
T1398 002:813 JLINK_ClrBPEx(BPHandle = 0x0000000D)  returns 0x00 (0000ms, 1912ms total)
T1398 002:813 JLINK_ReadReg(R0)  returns 0x00000000 (0001ms, 1912ms total)
T1398 002:815 JLINK_WriteReg(R0, 0x00000001)  returns 0x00 (0000ms, 1913ms total)
T1398 002:815 JLINK_WriteReg(R1, 0x00001000)  returns 0x00 (0000ms, 1913ms total)
T1398 002:815 JLINK_WriteReg(R2, 0x000000FF)  returns 0x00 (0000ms, 1913ms total)
T1398 002:815 JLINK_WriteReg(R3, 0x00000000)  returns 0x00 (0000ms, 1913ms total)
T1398 002:815 JLINK_WriteReg(R4, 0x00000000)  returns 0x00 (0000ms, 1913ms total)
T1398 002:815 JLINK_WriteReg(R5, 0x00000000)  returns 0x00 (0000ms, 1913ms total)
T1398 002:815 JLINK_WriteReg(R6, 0x00000000)  returns 0x00 (0000ms, 1913ms total)
T1398 002:815 JLINK_WriteReg(R7, 0x00000000)  returns 0x00 (0001ms, 1913ms total)
T1398 002:816 JLINK_WriteReg(R8, 0x00000000)  returns 0x00 (0000ms, 1914ms total)
T1398 002:816 JLINK_WriteReg(R9, 0x100001CC)  returns 0x00 (0000ms, 1914ms total)
T1398 002:816 JLINK_WriteReg(R10, 0x00000000)  returns 0x00 (0000ms, 1914ms total)
T1398 002:816 JLINK_WriteReg(R11, 0x00000000)  returns 0x00 (0000ms, 1914ms total)
T1398 002:816 JLINK_WriteReg(R12, 0x00000000)  returns 0x00 (0000ms, 1914ms total)
T1398 002:816 JLINK_WriteReg(R13, 0x10000800)  returns 0x00 (0000ms, 1914ms total)
T1398 002:816 JLINK_WriteReg(R14, 0x10000001)  returns 0x00 (0000ms, 1914ms total)
T1398 002:816 JLINK_WriteReg(R15, 0x100000A2)  returns 0x00 (0000ms, 1914ms total)
T1398 002:816 JLINK_WriteReg(XPSR, 0x01000000)  returns 0x00 (0001ms, 1914ms total)
T1398 002:817 JLINK_WriteReg(MSP, 0x10000800)  returns 0x00 (0000ms, 1915ms total)
T1398 002:817 JLINK_WriteReg(PSP, 0x10000800)  returns 0x00 (0000ms, 1915ms total)
T1398 002:817 JLINK_WriteReg(CFBP, 0x00000000)  returns 0x00 (0000ms, 1915ms total)
T1398 002:817 JLINK_SetBPEx(Addr = 0x10000000, Type = 0xFFFFFFF2)  returns 0x0000000E (0000ms, 1915ms total)
T1398 002:817 JLINK_Go() -- CPU_WriteMem(4 bytes @ 0xE0002008) -- CPU_WriteMem(4 bytes @ 0xE000200C) -- CPU_WriteMem(4 bytes @ 0xE0002010) -- CPU_WriteMem(4 bytes @ 0xE0002014) -- CPU_WriteMem(4 bytes @ 0xE0002018) -- CPU_WriteMem(4 bytes @ 0xE000201C) (0026ms, 1915ms total)
T1398 002:843 JLINK_IsHalted()  returns TRUE (0008ms, 1941ms total)
T1398 002:851 JLINK_ReadReg(R15)  returns 0x10000000 (0000ms, 1941ms total)
T1398 002:851 JLINK_ClrBPEx(BPHandle = 0x0000000E)  returns 0x00 (0000ms, 1941ms total)
T1398 002:851 JLINK_ReadReg(R0)  returns 0x00000000 (0000ms, 1941ms total)
T1398 002:916 JLINK_WriteMem(0x10000000, 0x01D4 Bytes, ...) -- Data:  00 BE 0A E0 0D 78 2D 06 68 40 08 24 40 00 00 D3 ... -- CPU_WriteMem(468 bytes @ 0x10000000)  returns 0x1D4 (0009ms, 1941ms total)
T1398 002:925 JLINK_WriteReg(R0, 0x00000000)  returns 0x00 (0000ms, 1950ms total)
T1398 002:925 JLINK_WriteReg(R1, 0x00B71B00)  returns 0x00 (0000ms, 1950ms total)
T1398 002:925 JLINK_WriteReg(R2, 0x00000002)  returns 0x00 (0000ms, 1950ms total)
T1398 002:925 JLINK_WriteReg(R3, 0x00000000)  returns 0x00 (0000ms, 1950ms total)
T1398 002:926 JLINK_WriteReg(R4, 0x00000000)  returns 0x00 (0000ms, 1951ms total)
T1398 002:926 JLINK_WriteReg(R5, 0x00000000)  returns 0x00 (0000ms, 1951ms total)
T1398 002:926 JLINK_WriteReg(R6, 0x00000000)  returns 0x00 (0000ms, 1951ms total)
T1398 002:926 JLINK_WriteReg(R7, 0x00000000)  returns 0x00 (0000ms, 1951ms total)
T1398 002:926 JLINK_WriteReg(R8, 0x00000000)  returns 0x00 (0000ms, 1951ms total)
T1398 002:926 JLINK_WriteReg(R9, 0x100001CC)  returns 0x00 (0000ms, 1951ms total)
T1398 002:926 JLINK_WriteReg(R10, 0x00000000)  returns 0x00 (0000ms, 1951ms total)
T1398 002:926 JLINK_WriteReg(R11, 0x00000000)  returns 0x00 (0000ms, 1951ms total)
T1398 002:926 JLINK_WriteReg(R12, 0x00000000)  returns 0x00 (0000ms, 1951ms total)
T1398 002:926 JLINK_WriteReg(R13, 0x10000800)  returns 0x00 (0000ms, 1951ms total)
T1398 002:926 JLINK_WriteReg(R14, 0x10000001)  returns 0x00 (0000ms, 1951ms total)
T1398 002:926 JLINK_WriteReg(R15, 0x10000044)  returns 0x00 (0001ms, 1951ms total)
T1398 002:927 JLINK_WriteReg(XPSR, 0x01000000)  returns 0x00 (0000ms, 1952ms total)
T1398 002:927 JLINK_WriteReg(MSP, 0x10000800)  returns 0x00 (0000ms, 1952ms total)
T1398 002:927 JLINK_WriteReg(PSP, 0x10000800)  returns 0x00 (0000ms, 1952ms total)
T1398 002:927 JLINK_WriteReg(CFBP, 0x00000000)  returns 0x00 (0000ms, 1952ms total)
T1398 002:927 JLINK_SetBPEx(Addr = 0x10000000, Type = 0xFFFFFFF2)  returns 0x0000000F (0000ms, 1952ms total)
T1398 002:927 JLINK_Go() -- CPU_WriteMem(4 bytes @ 0xE0002008) -- CPU_WriteMem(4 bytes @ 0xE000200C) -- CPU_WriteMem(4 bytes @ 0xE0002010) -- CPU_WriteMem(4 bytes @ 0xE0002014) -- CPU_WriteMem(4 bytes @ 0xE0002018) -- CPU_WriteMem(4 bytes @ 0xE000201C) (0019ms, 1952ms total)
T1398 002:946 JLINK_IsHalted()  returns TRUE (0009ms, 1971ms total)
T1398 002:955 JLINK_ReadReg(R15)  returns 0x10000000 (0000ms, 1971ms total)
T1398 002:955 JLINK_ClrBPEx(BPHandle = 0x0000000F)  returns 0x00 (0000ms, 1971ms total)
T1398 002:955 JLINK_ReadReg(R0)  returns 0x00000000 (0000ms, 1971ms total)
T1398 002:956 JLINK_WriteMem(0x100001F4, 0x0400 Bytes, ...) -- Data:  00 16 00 10 E9 00 00 00 F1 00 00 00 F3 00 00 00 ... -- CPU_WriteMem(1024 bytes @ 0x100001F4)  returns 0x400 (0015ms, 1971ms total)
T1398 002:971 JLINK_WriteReg(R0, 0x00000000)  returns 0x00 (0000ms, 1986ms total)
T1398 002:971 JLINK_WriteReg(R1, 0x00000400)  returns 0x00 (0000ms, 1986ms total)
T1398 002:971 JLINK_WriteReg(R2, 0x100001F4)  returns 0x00 (0000ms, 1986ms total)
T1398 002:971 JLINK_WriteReg(R3, 0x00000000)  returns 0x00 (0000ms, 1986ms total)
T1398 002:971 JLINK_WriteReg(R4, 0x00000000)  returns 0x00 (0000ms, 1986ms total)
T1398 002:971 JLINK_WriteReg(R5, 0x00000000)  returns 0x00 (0000ms, 1986ms total)
T1398 002:971 JLINK_WriteReg(R6, 0x00000000)  returns 0x00 (0000ms, 1986ms total)
T1398 002:971 JLINK_WriteReg(R7, 0x00000000)  returns 0x00 (0000ms, 1986ms total)
T1398 002:971 JLINK_WriteReg(R8, 0x00000000)  returns 0x00 (0000ms, 1986ms total)
T1398 002:971 JLINK_WriteReg(R9, 0x100001CC)  returns 0x00 (0001ms, 1986ms total)
T1398 002:972 JLINK_WriteReg(R10, 0x00000000)  returns 0x00 (0000ms, 1987ms total)
T1398 002:972 JLINK_WriteReg(R11, 0x00000000)  returns 0x00 (0000ms, 1987ms total)
T1398 002:972 JLINK_WriteReg(R12, 0x00000000)  returns 0x00 (0000ms, 1987ms total)
T1398 002:972 JLINK_WriteReg(R13, 0x10000800)  returns 0x00 (0000ms, 1987ms total)
T1398 002:972 JLINK_WriteReg(R14, 0x10000001)  returns 0x00 (0000ms, 1987ms total)
T1398 002:972 JLINK_WriteReg(R15, 0x1000012C)  returns 0x00 (0000ms, 1987ms total)
T1398 002:972 JLINK_WriteReg(XPSR, 0x01000000)  returns 0x00 (0000ms, 1987ms total)
T1398 002:972 JLINK_WriteReg(MSP, 0x10000800)  returns 0x00 (0000ms, 1987ms total)
T1398 002:972 JLINK_WriteReg(PSP, 0x10000800)  returns 0x00 (0000ms, 1987ms total)
T1398 002:972 JLINK_WriteReg(CFBP, 0x00000000)  returns 0x00 (0000ms, 1987ms total)
T1398 002:972 JLINK_SetBPEx(Addr = 0x10000000, Type = 0xFFFFFFF2)  returns 0x00000010 (0000ms, 1987ms total)
T1398 002:972 JLINK_Go() -- CPU_WriteMem(4 bytes @ 0xE0002008) -- CPU_WriteMem(4 bytes @ 0xE000200C) -- CPU_WriteMem(4 bytes @ 0xE0002010) -- CPU_WriteMem(4 bytes @ 0xE0002014) -- CPU_WriteMem(4 bytes @ 0xE0002018) -- CPU_WriteMem(4 bytes @ 0xE000201C) (0018ms, 1987ms total)
T1398 002:990 JLINK_IsHalted()  returns FALSE (0002ms, 2005ms total)
T1398 003:042 JLINK_IsHalted()  returns TRUE (0009ms, 2005ms total)
T1398 003:051 JLINK_ReadReg(R15)  returns 0x10000000 (0000ms, 2005ms total)
T1398 003:051 JLINK_ClrBPEx(BPHandle = 0x00000010)  returns 0x00 (0000ms, 2005ms total)
T1398 003:051 JLINK_ReadReg(R0)  returns 0x00000000 (0000ms, 2005ms total)
T1398 003:054 JLINK_WriteMem(0x100001F4, 0x0400 Bytes, ...) -- Data:  61 EB 03 01 80 18 41 F5 80 11 49 08 4F EA 30 00 ... -- CPU_WriteMem(1024 bytes @ 0x100001F4)  returns 0x400 (0017ms, 2005ms total)
T1398 003:071 JLINK_WriteReg(R0, 0x00000400)  returns 0x00 (0000ms, 2022ms total)
T1398 003:071 JLINK_WriteReg(R1, 0x00000400)  returns 0x00 (0000ms, 2022ms total)
T1398 003:071 JLINK_WriteReg(R2, 0x100001F4)  returns 0x00 (0000ms, 2022ms total)
T1398 003:071 JLINK_WriteReg(R3, 0x00000000)  returns 0x00 (0000ms, 2022ms total)
T1398 003:071 JLINK_WriteReg(R4, 0x00000000)  returns 0x00 (0000ms, 2022ms total)
T1398 003:071 JLINK_WriteReg(R5, 0x00000000)  returns 0x00 (0000ms, 2022ms total)
T1398 003:071 JLINK_WriteReg(R6, 0x00000000)  returns 0x00 (0000ms, 2022ms total)
T1398 003:071 JLINK_WriteReg(R7, 0x00000000)  returns 0x00 (0000ms, 2022ms total)
T1398 003:071 JLINK_WriteReg(R8, 0x00000000)  returns 0x00 (0000ms, 2022ms total)
T1398 003:071 JLINK_WriteReg(R9, 0x100001CC)  returns 0x00 (0000ms, 2022ms total)
T1398 003:071 JLINK_WriteReg(R10, 0x00000000)  returns 0x00 (0001ms, 2022ms total)
T1398 003:072 JLINK_WriteReg(R11, 0x00000000)  returns 0x00 (0000ms, 2023ms total)
T1398 003:072 JLINK_WriteReg(R12, 0x00000000)  returns 0x00 (0000ms, 2023ms total)
T1398 003:072 JLINK_WriteReg(R13, 0x10000800)  returns 0x00 (0000ms, 2023ms total)
T1398 003:072 JLINK_WriteReg(R14, 0x10000001)  returns 0x00 (0000ms, 2023ms total)
T1398 003:072 JLINK_WriteReg(R15, 0x1000012C)  returns 0x00 (0000ms, 2023ms total)
T1398 003:072 JLINK_WriteReg(XPSR, 0x01000000)  returns 0x00 (0000ms, 2023ms total)
T1398 003:072 JLINK_WriteReg(MSP, 0x10000800)  returns 0x00 (0000ms, 2023ms total)
T1398 003:072 JLINK_WriteReg(PSP, 0x10000800)  returns 0x00 (0000ms, 2023ms total)
T1398 003:072 JLINK_WriteReg(CFBP, 0x00000000)  returns 0x00 (0000ms, 2023ms total)
T1398 003:072 JLINK_SetBPEx(Addr = 0x10000000, Type = 0xFFFFFFF2)  returns 0x00000011 (0000ms, 2023ms total)
T1398 003:072 JLINK_Go() -- CPU_WriteMem(4 bytes @ 0xE0002008) -- CPU_WriteMem(4 bytes @ 0xE000200C) -- CPU_WriteMem(4 bytes @ 0xE0002010) -- CPU_WriteMem(4 bytes @ 0xE0002014) -- CPU_WriteMem(4 bytes @ 0xE0002018) -- CPU_WriteMem(4 bytes @ 0xE000201C) (0017ms, 2023ms total)
T1398 003:089 JLINK_IsHalted()  returns FALSE (0002ms, 2040ms total)
T1398 003:141 JLINK_IsHalted()  returns TRUE (0010ms, 2040ms total)
T1398 003:151 JLINK_ReadReg(R15)  returns 0x10000000 (0000ms, 2040ms total)
T1398 003:151 JLINK_ClrBPEx(BPHandle = 0x00000011)  returns 0x00 (0000ms, 2040ms total)
T1398 003:151 JLINK_ReadReg(R0)  returns 0x00000000 (0000ms, 2040ms total)
T1398 003:151 JLINK_WriteMem(0x100001F4, 0x0400 Bytes, ...) -- Data:  C0 B2 8D F8 04 00 4F F4 7A 70 94 FB F0 F1 00 FB ... -- CPU_WriteMem(1024 bytes @ 0x100001F4)  returns 0x400 (0017ms, 2040ms total)
T1398 003:168 JLINK_WriteReg(R0, 0x00000800)  returns 0x00 (0000ms, 2057ms total)
T1398 003:168 JLINK_WriteReg(R1, 0x00000400)  returns 0x00 (0000ms, 2057ms total)
T1398 003:168 JLINK_WriteReg(R2, 0x100001F4)  returns 0x00 (0000ms, 2057ms total)
T1398 003:168 JLINK_WriteReg(R3, 0x00000000)  returns 0x00 (0000ms, 2057ms total)
T1398 003:168 JLINK_WriteReg(R4, 0x00000000)  returns 0x00 (0001ms, 2057ms total)
T1398 003:169 JLINK_WriteReg(R5, 0x00000000)  returns 0x00 (0000ms, 2058ms total)
T1398 003:169 JLINK_WriteReg(R6, 0x00000000)  returns 0x00 (0000ms, 2058ms total)
